
T3F24 000:295 SEGGER J-Link V4.98e Log File (0000ms, 0267ms total)
T3F24 000:295 DLL Compiled: May  5 2015 11:00:52 (0000ms, 0267ms total)
T3F24 000:295 Logging started @ 2015-08-08 11:46 (0000ms, 0267ms total)
T3F24 000:295 JLINK_SetWarnOutHandler(...) (0001ms, 0268ms total)
T3F24 000:296 JLINK_OpenEx(...)
Firmware: J-Link ARM V8 compiled Nov 28 2014 13:44:46
Hardware: V8.00
S/N: 20150205
Feature(s): RDI,FlashDL,FlashBP,JFlash,GDBFULL  returns O.K. (0268ms, 0536ms total)
T3F24 000:564 JLINK_SetErrorOutHandler(...) (0000ms, 0536ms total)
T3F24 000:564 JLINK_ExecCommand("ProjectFile = "F:\Test\Contiki\MDK_contiki\JLinkSettings.ini"", ...)  returns 0x00 (0001ms, 0537ms total)
T3F24 000:565 JLINK_ExecCommand("Device = STM32F103ZE", ...)Device "STM32F103ZE" selected.  returns 0x00 (0001ms, 0538ms total)
T3F24 000:566 JLINK_ExecCommand("DisableConnectionTimeout", ...)  returns 0x01 (0000ms, 0538ms total)
T3F24 000:566 JLINK_GetHardwareVersion()  returns 0x13880 (0000ms, 0538ms total)
T3F24 000:566 JLINK_GetDLLVersion()  returns 49805 (0000ms, 0538ms total)
T3F24 000:566 JLINK_GetFirmwareString(...) (0000ms, 0538ms total)
T3F24 000:566 JLINK_GetDLLVersion()  returns 49805 (0000ms, 0538ms total)
T3F24 000:566 JLINK_GetCompileDateTime() (0000ms, 0538ms total)
T3F24 000:566 JLINK_GetFirmwareString(...) (0000ms, 0538ms total)
T3F24 000:566 JLINK_GetHardwareVersion()  returns 0x13880 (0000ms, 0538ms total)
T3F24 000:567 JLINK_TIF_Select(JLINKARM_TIF_SWD)  returns 0x00 (0001ms, 0539ms total)
T3F24 000:568 JLINK_SetSpeed(50000) (0001ms, 0540ms total)
T3F24 000:569 JLINK_GetId() >0x108 TIF>Found SWD-DP with ID 0x1BA01477 >0x0D TIF> >0x28 TIF> >0x0D TIF> >0x28 TIF> >0x0D TIF> >0x21 TIF> >0x0D TIF> >0x28 TIF> >0x0D TIF> >0x28 TIF> >0x0D TIF> >0x28 TIF> >0x0D TIF> >0x21 TIF> >0x0D TIF> >0x21 TIF> >0x0D TIF> >0x28 TIF> >0x0D TIF> >0x21 TIF> >0x0D TIF> >0x21 TIF> >0x108 TIF>Found SWD-DP with ID 0x1BA01477 >0x0D TIF> >0x21 TIF> >0x0D TIF> >0x28 TIF> >0x0D TIF> >0x28 TIF> >0x0D TIF> >0x21 TIF> >0x0D TIF> >0x28 TIF> >0x0D TIF> >0x21 TIF> >0x0D TIF> >0x21 TIF>
 >0x0D TIF> >0x21 TIF> >0x0D TIF> >0x21 TIF> >0x0D TIF> >0x28 TIF> >0x0D TIF> >0x28 TIF> >0x0D TIF> >0x21 TIF> >0x0D TIF> >0x28 TIF> >0x0D TIF> >0x28 TIF> >0x0D TIF> >0x28 TIF> >0x0D TIF> >0x21 TIF> >0x0D TIF> >0x21 TIF> >0x0D TIF> >0x28 TIF> >0x0D TIF> >0x21 TIF> >0x0D TIF> >0x21 TIF>Found Cortex-M3 r1p1, Little endian. -- CPU_WriteMem(4 bytes @ 0xE0002000) -- CPU_ReadMem(4 bytes @ 0xE000EDF0) -- CPU_ReadMem(4 bytes @ 0xE0002000)FPUnit: 6 code (BP) slots and 2 literal slots
 -- CPU_ReadMem(4 bytes @ 0xE000EDFC) -- CPU_ReadMem(4 bytes @ 0xE0001000) -- CPU_WriteMem(4 bytes @ 0xE0001000) -- CPU_ReadMem(4 bytes @ 0xE000ED88) -- CPU_WriteMem(4 bytes @ 0xE000ED88) -- CPU_ReadMem(4 bytes @ 0xE000ED88) -- CPU_WriteMem(4 bytes @ 0xE000ED88)CoreSight components:ROMTbl 0 @ E00FF000 -- CPU_ReadMem(16 bytes @ 0xE00FF000) -- CPU_ReadMem(16 bytes @ 0xE000EFF0) -- CPU_ReadMem(16 bytes @ 0xE000EFE0)ROMTbl 0 [0]: FFF0F000, CID: B105E00D, PID: 001BB000 SCS
 -- CPU_ReadMem(16 bytes @ 0xE0001FF0) -- CPU_ReadMem(16 bytes @ 0xE0001FE0)ROMTbl 0 [1]: FFF02000, CID: B105E00D, PID: 001BB002 DWT -- CPU_ReadMem(16 bytes @ 0xE0002FF0) -- CPU_ReadMem(16 bytes @ 0xE0002FE0)ROMTbl 0 [2]: FFF03000, CID: B105E00D, PID: 000BB003 FPB -- CPU_ReadMem(16 bytes @ 0xE0000FF0) -- CPU_ReadMem(16 bytes @ 0xE0000FE0)ROMTbl 0 [3]: FFF01000, CID: B105E00D, PID: 001BB001 ITM -- CPU_ReadMem(16 bytes @ 0xE00FF010) -- CPU_ReadMem(16 bytes @ 0xE0040FF0)
 -- CPU_ReadMem(16 bytes @ 0xE0040FE0)ROMTbl 0 [4]: FFF41000, CID: B105900D, PID: 001BB923 TPIU-Lite -- CPU_ReadMem(16 bytes @ 0xE0041FF0) -- CPU_ReadMem(16 bytes @ 0xE0041FE0)ROMTbl 0 [5]: FFF42000, CID: B105900D, PID: 101BB924 ETM-M3 >0x0D TIF> >0x21 TIF>  returns 0x1BA01477 (0056ms, 0596ms total)
T3F24 000:625 JLINK_GetDLLVersion()  returns 49805 (0000ms, 0596ms total)
T3F24 000:625 JLINK_CORE_GetFound()  returns 0x30000FF (0000ms, 0596ms total)
T3F24 000:625 JLINK_GetDebugInfo(0x100) -- Value=0xE00FF003  returns 0x00 (0000ms, 0596ms total)
T3F24 000:625 JLINK_ReadMem (0xE00FF000, 0x0020 Bytes, ...) -- CPU is running -- CPU_ReadMem(32 bytes @ 0xE00FF000) - Data: 03 F0 F0 FF 03 20 F0 FF 03 30 F0 FF 03 10 F0 FF ...  returns 0x00 (0001ms, 0597ms total)
T3F24 000:626 JLINK_ReadMem (0xE000EFF0, 0x0010 Bytes, ...) -- CPU is running -- CPU_ReadMem(16 bytes @ 0xE000EFF0) - Data: 0D 00 00 00 E0 00 00 00 05 00 00 00 B1 00 00 00  returns 0x00 (0001ms, 0598ms total)
T3F24 000:627 JLINK_ReadMem (0xE000EFD0, 0x0020 Bytes, ...) -- CPU is running -- CPU_ReadMem(32 bytes @ 0xE000EFD0) - Data: 04 00 00 00 00 00 00 00 00 00 00 00 00 00 00 00 ...  returns 0x00 (0001ms, 0599ms total)
T3F24 000:628 JLINK_ReadMem (0xE0001FF0, 0x0010 Bytes, ...) -- CPU is running -- CPU_ReadMem(16 bytes @ 0xE0001FF0) - Data: 0D 00 00 00 E0 00 00 00 05 00 00 00 B1 00 00 00  returns 0x00 (0000ms, 0599ms total)
T3F24 000:628 JLINK_ReadMem (0xE0001FD0, 0x0020 Bytes, ...) -- CPU is running -- CPU_ReadMem(32 bytes @ 0xE0001FD0) - Data: 04 00 00 00 00 00 00 00 00 00 00 00 00 00 00 00 ...  returns 0x00 (0001ms, 0600ms total)
T3F24 000:629 JLINK_ReadMem (0xE0002FF0, 0x0010 Bytes, ...) -- CPU is running -- CPU_ReadMem(16 bytes @ 0xE0002FF0) - Data: 0D 00 00 00 E0 00 00 00 05 00 00 00 B1 00 00 00  returns 0x00 (0001ms, 0601ms total)
T3F24 000:630 JLINK_ReadMem (0xE0002FD0, 0x0020 Bytes, ...) -- CPU is running -- CPU_ReadMem(32 bytes @ 0xE0002FD0) - Data: 04 00 00 00 00 00 00 00 00 00 00 00 00 00 00 00 ...  returns 0x00 (0001ms, 0602ms total)
T3F24 000:631 JLINK_ReadMem (0xE0000FF0, 0x0010 Bytes, ...) -- CPU is running -- CPU_ReadMem(16 bytes @ 0xE0000FF0) - Data: 0D 00 00 00 E0 00 00 00 05 00 00 00 B1 00 00 00  returns 0x00 (0000ms, 0602ms total)
T3F24 000:631 JLINK_ReadMem (0xE0000FD0, 0x0020 Bytes, ...) -- CPU is running -- CPU_ReadMem(32 bytes @ 0xE0000FD0) - Data: 04 00 00 00 00 00 00 00 00 00 00 00 00 00 00 00 ...  returns 0x00 (0001ms, 0603ms total)
T3F24 000:632 JLINK_ReadMem (0xE0040FF0, 0x0010 Bytes, ...) -- CPU is running -- CPU_ReadMem(16 bytes @ 0xE0040FF0) - Data: 0D 00 00 00 90 00 00 00 05 00 00 00 B1 00 00 00  returns 0x00 (0001ms, 0604ms total)
T3F24 000:633 JLINK_ReadMem (0xE0040FD0, 0x0020 Bytes, ...) -- CPU is running -- CPU_ReadMem(32 bytes @ 0xE0040FD0) - Data: 04 00 00 00 00 00 00 00 00 00 00 00 00 00 00 00 ...  returns 0x00 (0001ms, 0605ms total)
T3F24 000:634 JLINK_ReadMem (0xE0041FF0, 0x0010 Bytes, ...) -- CPU is running -- CPU_ReadMem(16 bytes @ 0xE0041FF0) - Data: 0D 00 00 00 90 00 00 00 05 00 00 00 B1 00 00 00  returns 0x00 (0000ms, 0605ms total)
T3F24 000:634 JLINK_ReadMem (0xE0041FD0, 0x0020 Bytes, ...) -- CPU is running -- CPU_ReadMem(32 bytes @ 0xE0041FD0) - Data: 04 00 00 00 00 00 00 00 00 00 00 00 00 00 00 00 ...  returns 0x00 (0001ms, 0606ms total)
T3F24 000:635 JLINK_ReadMemU32(0xE000ED00, 0x0001 Items, ...) -- CPU is running -- CPU_ReadMem(4 bytes @ 0xE000ED00) - Data: 31 C2 1F 41  returns 0x01 (0001ms, 0607ms total)
T3F24 000:636 JLINK_SetResetType(JLINKARM_RESET_TYPE_NORMAL)  returns JLINKARM_RESET_TYPE_NORMAL (0000ms, 0607ms total)
T3F24 000:636 JLINK_Reset() -- CPU is running -- CPU_WriteMem(4 bytes @ 0xE000EDF0) -- CPU is running -- CPU_WriteMem(4 bytes @ 0xE000EDFC) >0x35 TIF> -- CPU is running -- CPU_WriteMem(4 bytes @ 0xE000ED0C) -- CPU is running -- CPU_ReadMem(4 bytes @ 0xE000EDF0) -- CPU is running -- CPU_ReadMem(4 bytes @ 0xE000EDF0) -- CPU is running -- CPU_WriteMem(4 bytes @ 0xE000EDF0) -- CPU is running -- CPU_WriteMem(4 bytes @ 0xE000EDFC) -- CPU is running -- CPU_ReadMem(4 bytes @ 0xE000EDF0)
 -- CPU_WriteMem(4 bytes @ 0xE0002000) -- CPU_ReadMem(4 bytes @ 0xE000EDFC) -- CPU_ReadMem(4 bytes @ 0xE0001000) (0019ms, 0626ms total)
T3F24 000:655 JLINK_ReadReg(R15 (PC))  returns 0x08002B5C (0000ms, 0626ms total)
T3F24 000:655 JLINK_ReadReg(XPSR)  returns 0x01000000 (0000ms, 0626ms total)
T3F24 000:655 JLINK_Halt()  returns 0x00 (0001ms, 0627ms total)
T3F24 000:656 JLINK_IsHalted()  returns TRUE (0000ms, 0627ms total)
T3F24 000:656 JLINK_ReadMemU32(0xE000EDF0, 0x0001 Items, ...) -- CPU_ReadMem(4 bytes @ 0xE000EDF0) - Data: 03 00 03 00  returns 0x01 (0000ms, 0627ms total)
T3F24 000:656 JLINK_WriteU32(0xE000EDF0, 0xA05F0003) -- CPU_WriteMem(4 bytes @ 0xE000EDF0)  returns 0x00 (0001ms, 0628ms total)
T3F24 000:657 JLINK_WriteU32(0xE000EDFC, 0x01000000) -- CPU_WriteMem(4 bytes @ 0xE000EDFC)  returns 0x00 (0000ms, 0628ms total)
T3F24 000:658 JLINK_GetHWStatus(...)  returns 0x00 (0001ms, 0629ms total)
T3F24 000:659 JLINK_GetNumBPUnits(Type = 0xFFFFFF00)  returns 0x06 (0000ms, 0629ms total)
T3F24 000:659 JLINK_GetNumBPUnits(Type = 0xF0)  returns 0x2000 (0000ms, 0629ms total)
T3F24 000:659 JLINK_GetNumWPUnits()  returns 0x04 (0000ms, 0629ms total)
T3F24 000:659 JLINK_GetSpeed()  returns 0xFA0 (0000ms, 0629ms total)
T3F24 000:660 JLINK_ReadMemU32(0xE000E004, 0x0001 Items, ...) -- CPU_ReadMem(4 bytes @ 0xE000E004) - Data: 01 00 00 00  returns 0x01 (0001ms, 0630ms total)
T3F24 000:661 JLINK_ReadMemU32(0xE000E004, 0x0001 Items, ...) -- CPU_ReadMem(4 bytes @ 0xE000E004) - Data: 01 00 00 00  returns 0x01 (0000ms, 0630ms total)
T3F24 000:661 JLINK_WriteMem(0xE0001000, 0x001C Bytes, ...) - Data: 01 00 00 00 00 00 00 00 00 00 00 00 00 00 00 00 ... -- CPU_WriteMem(28 bytes @ 0xE0001000)  returns 0x1C (0002ms, 0632ms total)
T3F24 000:663 JLINK_ReadMem (0xE0001000, 0x001C Bytes, ...) -- CPU_ReadMem(28 bytes @ 0xE0001000) - Data: 01 00 00 40 00 00 00 00 00 00 00 00 00 00 00 00 ...  returns 0x00 (0001ms, 0633ms total)
T3F24 000:664 JLINK_ReadReg(R15 (PC))  returns 0x08002B5C (0000ms, 0633ms total)
T3F24 000:664 JLINK_ReadReg(XPSR)  returns 0x01000000 (0000ms, 0633ms total)
T3F24 000:815 JLINK_SetResetType(JLINKARM_RESET_TYPE_NORMAL)  returns JLINKARM_RESET_TYPE_NORMAL (0000ms, 0633ms total)
T3F24 000:815 JLINK_Reset() -- CPU_WriteMem(4 bytes @ 0xE000EDF0) -- CPU_WriteMem(4 bytes @ 0xE000EDFC) >0x35 TIF> -- CPU_WriteMem(4 bytes @ 0xE000ED0C) -- CPU_ReadMem(4 bytes @ 0xE000EDF0) -- CPU_ReadMem(4 bytes @ 0xE000EDF0) -- CPU_WriteMem(4 bytes @ 0xE000EDF0) -- CPU_WriteMem(4 bytes @ 0xE000EDFC) -- CPU is running -- CPU_ReadMem(4 bytes @ 0xE000EDF0) -- CPU_WriteMem(4 bytes @ 0xE0002000) -- CPU_ReadMem(4 bytes @ 0xE000EDFC) -- CPU_ReadMem(4 bytes @ 0xE0001000) (0020ms, 0653ms total)
T3F24 000:835 JLINK_ReadReg(R15 (PC))  returns 0x08002B5C (0000ms, 0653ms total)
T3F24 000:835 JLINK_ReadReg(XPSR)  returns 0x01000000 (0000ms, 0653ms total)
T3F24 000:835 JLINK_ReadMem (0x08002B5C, 0x003C Bytes, ...) -- CPU_ReadMem(128 bytes @ 0x08002B40) -- Updating C cache (128 bytes @ 0x08002B40) -- Read from C cache (60 bytes @ 0x08002B5C) - Data: 06 48 80 47 06 48 00 47 FE E7 FE E7 FE E7 FE E7 ...  returns 0x00 (0002ms, 0655ms total)
T363C 002:498 JLINK_SetBPEx(Addr = 0x080041C0, Type = 0xFFFFFFF2)  returns 0x00000001 (0000ms, 0655ms total)
T363C 002:498 JLINK_Go() -- CPU_WriteMem(4 bytes @ 0xE0002000) -- CPU_ReadMem(4 bytes @ 0xE0001000) -- CPU_WriteMem(4 bytes @ 0xE0002008) -- CPU_WriteMem(4 bytes @ 0xE000200C) -- CPU_WriteMem(4 bytes @ 0xE0002010) -- CPU_WriteMem(4 bytes @ 0xE0002014) -- CPU_WriteMem(4 bytes @ 0xE0002018) -- CPU_WriteMem(4 bytes @ 0xE000201C) -- CPU_WriteMem(4 bytes @ 0xE0001004) (0005ms, 0660ms total)
T363C 002:604 JLINK_IsHalted()  returns TRUE (0003ms, 0663ms total)
T363C 002:607 JLINK_Halt()  returns 0x00 (0000ms, 0660ms total)
T363C 002:607 JLINK_IsHalted()  returns TRUE (0000ms, 0660ms total)
T363C 002:607 JLINK_IsHalted()  returns TRUE (0000ms, 0660ms total)
T363C 002:607 JLINK_IsHalted()  returns TRUE (0000ms, 0660ms total)
T363C 002:607 JLINK_ReadReg(R15 (PC))  returns 0x080041C0 (0000ms, 0660ms total)
T363C 002:607 JLINK_ReadReg(XPSR)  returns 0x61000000 (0000ms, 0660ms total)
T363C 002:607 JLINK_ClrBPEx(BPHandle = 0x00000001)  returns 0x00 (0000ms, 0660ms total)
T363C 002:607 JLINK_ReadMemU32(0xE000ED30, 0x0001 Items, ...) -- CPU_ReadMem(4 bytes @ 0xE000ED30) - Data: 03 00 00 00  returns 0x01 (0001ms, 0661ms total)
T363C 002:608 JLINK_ReadMemU32(0xE0001028, 0x0001 Items, ...) -- CPU_ReadMem(4 bytes @ 0xE0001028) - Data: 00 00 00 00  returns 0x01 (0000ms, 0661ms total)
T363C 002:608 JLINK_ReadMemU32(0xE0001038, 0x0001 Items, ...) -- CPU_ReadMem(4 bytes @ 0xE0001038) - Data: 00 02 00 00  returns 0x01 (0001ms, 0662ms total)
T363C 002:609 JLINK_ReadMemU32(0xE0001048, 0x0001 Items, ...) -- CPU_ReadMem(4 bytes @ 0xE0001048) - Data: 00 00 00 00  returns 0x01 (0000ms, 0662ms total)
T363C 002:609 JLINK_ReadMemU32(0xE0001058, 0x0001 Items, ...) -- CPU_ReadMem(4 bytes @ 0xE0001058) - Data: 00 00 00 00  returns 0x01 (0001ms, 0663ms total)
T363C 002:610 JLINK_ReadReg(R0)  returns 0x080041C1 (0000ms, 0663ms total)
T363C 002:610 JLINK_ReadReg(R1)  returns 0x60000B28 (0000ms, 0663ms total)
T363C 002:610 JLINK_ReadReg(R2)  returns 0x00000000 (0000ms, 0663ms total)
T363C 002:610 JLINK_ReadReg(R3)  returns 0x08009029 (0000ms, 0663ms total)
T363C 002:610 JLINK_ReadReg(R4)  returns 0x08009318 (0000ms, 0663ms total)
T363C 002:610 JLINK_ReadReg(R5)  returns 0x08009318 (0000ms, 0663ms total)
T363C 002:610 JLINK_ReadReg(R6)  returns 0x00000000 (0000ms, 0663ms total)
T363C 002:610 JLINK_ReadReg(R7)  returns 0x00000000 (0000ms, 0663ms total)
T363C 002:610 JLINK_ReadReg(R8)  returns 0x00000000 (0000ms, 0663ms total)
T363C 002:610 JLINK_ReadReg(R9)  returns 0x20000160 (0000ms, 0663ms total)
T363C 002:610 JLINK_ReadReg(R10)  returns 0x00000000 (0000ms, 0663ms total)
T363C 002:610 JLINK_ReadReg(R11)  returns 0x00000000 (0000ms, 0663ms total)
T363C 002:611 JLINK_ReadReg(R12)  returns 0x00000010 (0000ms, 0664ms total)
T363C 002:611 JLINK_ReadReg(R13 (SP))  returns 0x60000B28 (0000ms, 0664ms total)
T363C 002:611 JLINK_ReadReg(R14)  returns 0x08008C91 (0000ms, 0664ms total)
T363C 002:611 JLINK_ReadReg(R15 (PC))  returns 0x080041C0 (0000ms, 0664ms total)
T363C 002:611 JLINK_ReadReg(XPSR)  returns 0x61000000 (0000ms, 0664ms total)
T363C 002:611 JLINK_ReadReg(MSP)  returns 0x60000B28 (0000ms, 0664ms total)
T363C 002:611 JLINK_ReadReg(PSP)  returns 0x20001000 (0000ms, 0664ms total)
T363C 002:611 JLINK_ReadReg(CFBP)  returns 0x00000000 (0000ms, 0664ms total)
T3F24 003:026 JLINK_ReadMemU32(0xE0001004, 0x0001 Items, ...) -- CPU_ReadMem(4 bytes @ 0xE0001004) - Data: 68 A0 07 00  returns 0x01 (0001ms, 0665ms total)
T3F24 003:030 JLINK_ReadMem (0x080041C0, 0x003C Bytes, ...) -- CPU_ReadMem(64 bytes @ 0x080041C0) -- Updating C cache (64 bytes @ 0x080041C0) -- Read from C cache (60 bytes @ 0x080041C0) - Data: 00 F0 C5 FB 13 A0 04 F0 17 FF 00 F0 6B FB 00 F0 ...  returns 0x00 (0001ms, 0666ms total)
T363C 004:094 JLINK_SetBPEx(Addr = 0x080041C4, Type = 0xFFFFFFF2)  returns 0x00000002 (0000ms, 0666ms total)
T363C 004:094 JLINK_Go() -- CPU_WriteMem(4 bytes @ 0xE0002000) -- CPU_ReadMem(4 bytes @ 0xE0001000) -- CPU_WriteMem(4 bytes @ 0xE0002008) (0004ms, 0670ms total)
T363C 004:199 JLINK_IsHalted()  returns TRUE (0002ms, 0672ms total)
T363C 004:201 JLINK_Halt()  returns 0x00 (0000ms, 0670ms total)
T363C 004:201 JLINK_IsHalted()  returns TRUE (0000ms, 0670ms total)
T363C 004:201 JLINK_IsHalted()  returns TRUE (0000ms, 0670ms total)
T363C 004:201 JLINK_IsHalted()  returns TRUE (0000ms, 0670ms total)
T363C 004:201 JLINK_ReadReg(R15 (PC))  returns 0x080041C4 (0000ms, 0670ms total)
T363C 004:202 JLINK_ReadReg(XPSR)  returns 0x21000000 (0000ms, 0671ms total)
T363C 004:202 JLINK_ClrBPEx(BPHandle = 0x00000002)  returns 0x00 (0000ms, 0671ms total)
T363C 004:202 JLINK_ReadMemU32(0xE000ED30, 0x0001 Items, ...) -- CPU_ReadMem(4 bytes @ 0xE000ED30) - Data: 03 00 00 00  returns 0x01 (0000ms, 0671ms total)
T363C 004:202 JLINK_ReadMemU32(0xE0001028, 0x0001 Items, ...) -- CPU_ReadMem(4 bytes @ 0xE0001028) - Data: 00 00 00 00  returns 0x01 (0001ms, 0672ms total)
T363C 004:203 JLINK_ReadMemU32(0xE0001038, 0x0001 Items, ...) -- CPU_ReadMem(4 bytes @ 0xE0001038) - Data: 00 02 00 00  returns 0x01 (0001ms, 0673ms total)
T363C 004:204 JLINK_ReadMemU32(0xE0001048, 0x0001 Items, ...) -- CPU_ReadMem(4 bytes @ 0xE0001048) - Data: 00 00 00 00  returns 0x01 (0000ms, 0673ms total)
T363C 004:204 JLINK_ReadMemU32(0xE0001058, 0x0001 Items, ...) -- CPU_ReadMem(4 bytes @ 0xE0001058) - Data: 00 00 00 00  returns 0x01 (0001ms, 0674ms total)
T363C 004:205 JLINK_ReadReg(R0)  returns 0x00000001 (0000ms, 0674ms total)
T363C 004:205 JLINK_ReadReg(R1)  returns 0x40023000 (0000ms, 0674ms total)
T363C 004:205 JLINK_ReadReg(R2)  returns 0x00000154 (0000ms, 0674ms total)
T363C 004:205 JLINK_ReadReg(R3)  returns 0x40021000 (0000ms, 0674ms total)
T363C 004:205 JLINK_ReadReg(R4)  returns 0x08009318 (0000ms, 0674ms total)
T363C 004:205 JLINK_ReadReg(R5)  returns 0x08009318 (0000ms, 0674ms total)
T363C 004:205 JLINK_ReadReg(R6)  returns 0x00000000 (0000ms, 0674ms total)
T363C 004:205 JLINK_ReadReg(R7)  returns 0x00000000 (0000ms, 0674ms total)
T363C 004:205 JLINK_ReadReg(R8)  returns 0x00000000 (0000ms, 0674ms total)
T363C 004:205 JLINK_ReadReg(R9)  returns 0x20000160 (0000ms, 0674ms total)
T363C 004:205 JLINK_ReadReg(R10)  returns 0x00000000 (0001ms, 0675ms total)
T363C 004:206 JLINK_ReadReg(R11)  returns 0x00000000 (0000ms, 0675ms total)
T363C 004:206 JLINK_ReadReg(R12)  returns 0x00000C00 (0000ms, 0675ms total)
T363C 004:206 JLINK_ReadReg(R13 (SP))  returns 0x60000B28 (0000ms, 0675ms total)
T363C 004:206 JLINK_ReadReg(R14)  returns 0x08004939 (0000ms, 0675ms total)
T363C 004:206 JLINK_ReadReg(R15 (PC))  returns 0x080041C4 (0000ms, 0675ms total)
T363C 004:206 JLINK_ReadReg(XPSR)  returns 0x21000000 (0000ms, 0675ms total)
T363C 004:206 JLINK_ReadReg(MSP)  returns 0x60000B28 (0000ms, 0675ms total)
T363C 004:206 JLINK_ReadReg(PSP)  returns 0x20001000 (0000ms, 0675ms total)
T363C 004:206 JLINK_ReadReg(CFBP)  returns 0x00000000 (0000ms, 0675ms total)
T3F24 004:206 JLINK_ReadMemU32(0xE0001004, 0x0001 Items, ...) -- CPU_ReadMem(4 bytes @ 0xE0001004) - Data: 0B 63 08 00  returns 0x01 (0001ms, 0676ms total)
T3F24 004:215 JLINK_ReadMem (0x080041C4, 0x003C Bytes, ...) -- CPU_ReadMem(64 bytes @ 0x080041C0) -- Updating C cache (64 bytes @ 0x080041C0) -- Read from C cache (60 bytes @ 0x080041C4) - Data: 13 A0 04 F0 17 FF 00 F0 6B FB 00 F0 30 FA 00 21 ...  returns 0x00 (0002ms, 0678ms total)
T363C 004:789 JLINK_Step() -- Read from C cache (2 bytes @ 0x080041C4) -- Simulated  returns 0x00 (0002ms, 0680ms total)
T363C 004:791 JLINK_ReadReg(R15 (PC))  returns 0x080041C6 (0000ms, 0680ms total)
T363C 004:791 JLINK_ReadReg(XPSR)  returns 0x21000000 (0000ms, 0680ms total)
T363C 004:791 JLINK_SetBPEx(Addr = 0x080041CA, Type = 0xFFFFFFF2)  returns 0x00000003 (0000ms, 0680ms total)
T363C 004:791 JLINK_Go() -- CPU_WriteMem(4 bytes @ 0xE0002000) -- CPU_ReadMem(4 bytes @ 0xE0001000) -- CPU_WriteMem(4 bytes @ 0xE0002008) -- CPU_WriteMem(4 bytes @ 0xE0001004) (0004ms, 0684ms total)
T363C 004:896 JLINK_IsHalted()  returns TRUE (0003ms, 0687ms total)
T363C 004:899 JLINK_Halt()  returns 0x00 (0000ms, 0684ms total)
T363C 004:899 JLINK_IsHalted()  returns TRUE (0000ms, 0684ms total)
T363C 004:899 JLINK_IsHalted()  returns TRUE (0000ms, 0684ms total)
T363C 004:899 JLINK_IsHalted()  returns TRUE (0000ms, 0684ms total)
T363C 004:899 JLINK_ReadReg(R15 (PC))  returns 0x080041CA (0000ms, 0684ms total)
T363C 004:899 JLINK_ReadReg(XPSR)  returns 0x61000000 (0000ms, 0684ms total)
T363C 004:899 JLINK_ClrBPEx(BPHandle = 0x00000003)  returns 0x00 (0000ms, 0684ms total)
T363C 004:899 JLINK_ReadMemU32(0xE000ED30, 0x0001 Items, ...) -- CPU_ReadMem(4 bytes @ 0xE000ED30) - Data: 03 00 00 00  returns 0x01 (0001ms, 0685ms total)
T363C 004:900 JLINK_ReadMemU32(0xE0001028, 0x0001 Items, ...) -- CPU_ReadMem(4 bytes @ 0xE0001028) - Data: 00 00 00 00  returns 0x01 (0000ms, 0685ms total)
T363C 004:900 JLINK_ReadMemU32(0xE0001038, 0x0001 Items, ...) -- CPU_ReadMem(4 bytes @ 0xE0001038) - Data: 00 02 00 00  returns 0x01 (0001ms, 0686ms total)
T363C 004:901 JLINK_ReadMemU32(0xE0001048, 0x0001 Items, ...) -- CPU_ReadMem(4 bytes @ 0xE0001048) - Data: 00 00 00 00  returns 0x01 (0001ms, 0687ms total)
T363C 004:902 JLINK_ReadMemU32(0xE0001058, 0x0001 Items, ...) -- CPU_ReadMem(4 bytes @ 0xE0001058) - Data: 00 00 00 00  returns 0x01 (0000ms, 0687ms total)
T363C 004:903 JLINK_ReadReg(R0)  returns 0x0000000E (0000ms, 0687ms total)
T363C 004:903 JLINK_ReadReg(R1)  returns 0x00000040 (0000ms, 0687ms total)
T363C 004:903 JLINK_ReadReg(R2)  returns 0x40004400 (0000ms, 0687ms total)
T363C 004:903 JLINK_ReadReg(R3)  returns 0x00000040 (0000ms, 0687ms total)
T363C 004:903 JLINK_ReadReg(R4)  returns 0x08009318 (0000ms, 0687ms total)
T363C 004:903 JLINK_ReadReg(R5)  returns 0x08009318 (0000ms, 0687ms total)
T363C 004:903 JLINK_ReadReg(R6)  returns 0x00000000 (0000ms, 0687ms total)
T363C 004:903 JLINK_ReadReg(R7)  returns 0x00000000 (0000ms, 0687ms total)
T363C 004:903 JLINK_ReadReg(R8)  returns 0x00000000 (0000ms, 0687ms total)
T363C 004:903 JLINK_ReadReg(R9)  returns 0x20000160 (0000ms, 0687ms total)
T363C 004:903 JLINK_ReadReg(R10)  returns 0x00000000 (0000ms, 0687ms total)
T363C 004:903 JLINK_ReadReg(R11)  returns 0x00000000 (0000ms, 0687ms total)
T363C 004:903 JLINK_ReadReg(R12)  returns 0x00000C00 (0000ms, 0687ms total)
T363C 004:903 JLINK_ReadReg(R13 (SP))  returns 0x60000B28 (0000ms, 0687ms total)
T363C 004:903 JLINK_ReadReg(R14)  returns 0x08004EC9 (0000ms, 0687ms total)
T363C 004:903 JLINK_ReadReg(R15 (PC))  returns 0x080041CA (0000ms, 0687ms total)
T363C 004:903 JLINK_ReadReg(XPSR)  returns 0x61000000 (0000ms, 0687ms total)
T363C 004:903 JLINK_ReadReg(MSP)  returns 0x60000B28 (0000ms, 0687ms total)
T363C 004:903 JLINK_ReadReg(PSP)  returns 0x20001000 (0000ms, 0687ms total)
T363C 004:903 JLINK_ReadReg(CFBP)  returns 0x00000000 (0000ms, 0687ms total)
T3F24 004:903 JLINK_ReadMemU32(0xE0001004, 0x0001 Items, ...) -- CPU_ReadMem(4 bytes @ 0xE0001004) - Data: 16 01 0A 00  returns 0x01 (0001ms, 0688ms total)
T3F24 004:907 JLINK_ReadMem (0x080041CA, 0x0002 Bytes, ...) -- CPU_ReadMem(64 bytes @ 0x080041C0) -- Updating C cache (64 bytes @ 0x080041C0) -- Read from C cache (2 bytes @ 0x080041CA) - Data: 00 F0  returns 0x00 (0002ms, 0690ms total)
T3F24 004:909 JLINK_ReadMem (0x080041CC, 0x003C Bytes, ...) -- CPU_ReadMem(64 bytes @ 0x08004200) -- Updating C cache (64 bytes @ 0x08004200) -- Read from C cache (60 bytes @ 0x080041CC) - Data: 6B FB 00 F0 30 FA 00 21 13 48 00 F0 06 FA 13 48 ...  returns 0x00 (0001ms, 0691ms total)
T363C 008:131 JLINK_SetBPEx(Addr = 0x080041CE, Type = 0xFFFFFFF2)  returns 0x00000004 (0001ms, 0692ms total)
T363C 008:132 JLINK_Go() -- CPU_WriteMem(4 bytes @ 0xE0002000) -- CPU_ReadMem(4 bytes @ 0xE0001000) -- CPU_WriteMem(4 bytes @ 0xE0002008) (0003ms, 0695ms total)
T363C 008:236 JLINK_IsHalted()  returns TRUE (0002ms, 0697ms total)
T363C 008:238 JLINK_Halt()  returns 0x00 (0000ms, 0695ms total)
T363C 008:238 JLINK_IsHalted()  returns TRUE (0000ms, 0695ms total)
T363C 008:238 JLINK_IsHalted()  returns TRUE (0000ms, 0695ms total)
T363C 008:239 JLINK_IsHalted()  returns TRUE (0000ms, 0695ms total)
T363C 008:239 JLINK_ReadReg(R15 (PC))  returns 0x080041CE (0000ms, 0695ms total)
T363C 008:239 JLINK_ReadReg(XPSR)  returns 0x61000000 (0000ms, 0695ms total)
T363C 008:239 JLINK_ClrBPEx(BPHandle = 0x00000004)  returns 0x00 (0000ms, 0695ms total)
T363C 008:239 JLINK_ReadMemU32(0xE000ED30, 0x0001 Items, ...) -- CPU_ReadMem(4 bytes @ 0xE000ED30) - Data: 03 00 00 00  returns 0x01 (0000ms, 0695ms total)
T363C 008:239 JLINK_ReadMemU32(0xE0001028, 0x0001 Items, ...) -- CPU_ReadMem(4 bytes @ 0xE0001028) - Data: 00 00 00 00  returns 0x01 (0001ms, 0696ms total)
T363C 008:240 JLINK_ReadMemU32(0xE0001038, 0x0001 Items, ...) -- CPU_ReadMem(4 bytes @ 0xE0001038) - Data: 00 02 00 00  returns 0x01 (0000ms, 0696ms total)
T363C 008:240 JLINK_ReadMemU32(0xE0001048, 0x0001 Items, ...) -- CPU_ReadMem(4 bytes @ 0xE0001048) - Data: 00 00 00 00  returns 0x01 (0001ms, 0697ms total)
T363C 008:241 JLINK_ReadMemU32(0xE0001058, 0x0001 Items, ...) -- CPU_ReadMem(4 bytes @ 0xE0001058) - Data: 00 00 00 00  returns 0x01 (0001ms, 0698ms total)
T363C 008:242 JLINK_ReadReg(R0)  returns 0x00000000 (0000ms, 0698ms total)
T363C 008:242 JLINK_ReadReg(R1)  returns 0x000AFC80 (0000ms, 0698ms total)
T363C 008:242 JLINK_ReadReg(R2)  returns 0xE000E000 (0000ms, 0698ms total)
T363C 008:242 JLINK_ReadReg(R3)  returns 0xE000ED18 (0000ms, 0698ms total)
T363C 008:242 JLINK_ReadReg(R4)  returns 0x08009318 (0000ms, 0698ms total)
T363C 008:242 JLINK_ReadReg(R5)  returns 0x08009318 (0000ms, 0698ms total)
T363C 008:242 JLINK_ReadReg(R6)  returns 0x00000000 (0000ms, 0698ms total)
T363C 008:242 JLINK_ReadReg(R7)  returns 0x00000000 (0000ms, 0698ms total)
T363C 008:242 JLINK_ReadReg(R8)  returns 0x00000000 (0001ms, 0699ms total)
T363C 008:243 JLINK_ReadReg(R9)  returns 0x20000160 (0000ms, 0699ms total)
T363C 008:243 JLINK_ReadReg(R10)  returns 0x00000000 (0000ms, 0699ms total)
T363C 008:243 JLINK_ReadReg(R11)  returns 0x00000000 (0000ms, 0699ms total)
T363C 008:243 JLINK_ReadReg(R12)  returns 0x00000C00 (0000ms, 0699ms total)
T363C 008:243 JLINK_ReadReg(R13 (SP))  returns 0x60000B28 (0000ms, 0699ms total)
T363C 008:243 JLINK_ReadReg(R14)  returns 0x080041CF (0000ms, 0699ms total)
T363C 008:243 JLINK_ReadReg(R15 (PC))  returns 0x080041CE (0000ms, 0699ms total)
T363C 008:243 JLINK_ReadReg(XPSR)  returns 0x61000000 (0000ms, 0699ms total)
T363C 008:243 JLINK_ReadReg(MSP)  returns 0x60000B28 (0000ms, 0699ms total)
T363C 008:243 JLINK_ReadReg(PSP)  returns 0x20001000 (0000ms, 0699ms total)
T363C 008:243 JLINK_ReadReg(CFBP)  returns 0x00000000 (0000ms, 0699ms total)
T3F24 008:244 JLINK_ReadMemU32(0xE0001004, 0x0001 Items, ...) -- CPU_ReadMem(4 bytes @ 0xE0001004) - Data: 81 04 0A 00  returns 0x01 (0001ms, 0700ms total)
T3F24 008:251 JLINK_ReadMem (0x080041CA, 0x0002 Bytes, ...) -- CPU_ReadMem(64 bytes @ 0x080041C0) -- Updating C cache (64 bytes @ 0x080041C0) -- Read from C cache (2 bytes @ 0x080041CA) - Data: 00 F0  returns 0x00 (0002ms, 0702ms total)
T3F24 008:253 JLINK_ReadMem (0x080041CC, 0x003C Bytes, ...) -- CPU_ReadMem(64 bytes @ 0x08004200) -- Updating C cache (64 bytes @ 0x08004200) -- Read from C cache (60 bytes @ 0x080041CC) - Data: 6B FB 00 F0 30 FA 00 21 13 48 00 F0 06 FA 13 48 ...  returns 0x00 (0001ms, 0703ms total)
T363C 008:692 JLINK_SetBPEx(Addr = 0x080041D2, Type = 0xFFFFFFF2)  returns 0x00000005 (0000ms, 0703ms total)
T363C 008:692 JLINK_Go() -- CPU_WriteMem(4 bytes @ 0xE0002000) -- CPU_ReadMem(4 bytes @ 0xE0001000) -- CPU_WriteMem(4 bytes @ 0xE0002008) (0003ms, 0706ms total)
T363C 008:796 JLINK_IsHalted()  returns TRUE (0002ms, 0708ms total)
T363C 008:798 JLINK_Halt()  returns 0x00 (0000ms, 0706ms total)
T363C 008:798 JLINK_IsHalted()  returns TRUE (0000ms, 0706ms total)
T363C 008:798 JLINK_IsHalted()  returns TRUE (0000ms, 0706ms total)
T363C 008:798 JLINK_IsHalted()  returns TRUE (0000ms, 0706ms total)
T363C 008:799 JLINK_ReadReg(R15 (PC))  returns 0x080041D2 (0000ms, 0706ms total)
T363C 008:799 JLINK_ReadReg(XPSR)  returns 0x61000000 (0000ms, 0706ms total)
T363C 008:799 JLINK_ClrBPEx(BPHandle = 0x00000005)  returns 0x00 (0000ms, 0706ms total)
T363C 008:799 JLINK_ReadMemU32(0xE000ED30, 0x0001 Items, ...) -- CPU_ReadMem(4 bytes @ 0xE000ED30) - Data: 03 00 00 00  returns 0x01 (0000ms, 0706ms total)
T363C 008:799 JLINK_ReadMemU32(0xE0001028, 0x0001 Items, ...) -- CPU_ReadMem(4 bytes @ 0xE0001028) - Data: 00 00 00 00  returns 0x01 (0001ms, 0707ms total)
T363C 008:800 JLINK_ReadMemU32(0xE0001038, 0x0001 Items, ...) -- CPU_ReadMem(4 bytes @ 0xE0001038) - Data: 00 02 00 00  returns 0x01 (0001ms, 0708ms total)
T363C 008:801 JLINK_ReadMemU32(0xE0001048, 0x0001 Items, ...) -- CPU_ReadMem(4 bytes @ 0xE0001048) - Data: 00 00 00 00  returns 0x01 (0001ms, 0709ms total)
T363C 008:802 JLINK_ReadMemU32(0xE0001058, 0x0001 Items, ...) -- CPU_ReadMem(4 bytes @ 0xE0001058) - Data: 00 00 00 00  returns 0x01 (0000ms, 0709ms total)
T363C 008:802 JLINK_ReadReg(R0)  returns 0x00000000 (0001ms, 0710ms total)
T363C 008:803 JLINK_ReadReg(R1)  returns 0x60000034 (0000ms, 0710ms total)
T363C 008:803 JLINK_ReadReg(R2)  returns 0xE000E000 (0000ms, 0710ms total)
T363C 008:803 JLINK_ReadReg(R3)  returns 0xE000ED18 (0000ms, 0710ms total)
T363C 008:803 JLINK_ReadReg(R4)  returns 0x08009318 (0000ms, 0710ms total)
T363C 008:803 JLINK_ReadReg(R5)  returns 0x08009318 (0000ms, 0710ms total)
T363C 008:803 JLINK_ReadReg(R6)  returns 0x00000000 (0000ms, 0710ms total)
T363C 008:803 JLINK_ReadReg(R7)  returns 0x00000000 (0000ms, 0710ms total)
T363C 008:803 JLINK_ReadReg(R8)  returns 0x00000000 (0000ms, 0710ms total)
T363C 008:803 JLINK_ReadReg(R9)  returns 0x20000160 (0000ms, 0710ms total)
T363C 008:803 JLINK_ReadReg(R10)  returns 0x00000000 (0000ms, 0710ms total)
T363C 008:803 JLINK_ReadReg(R11)  returns 0x00000000 (0000ms, 0710ms total)
T363C 008:803 JLINK_ReadReg(R12)  returns 0x00000C00 (0000ms, 0710ms total)
T363C 008:803 JLINK_ReadReg(R13 (SP))  returns 0x60000B28 (0000ms, 0710ms total)
T363C 008:803 JLINK_ReadReg(R14)  returns 0x080041D3 (0000ms, 0710ms total)
T363C 008:803 JLINK_ReadReg(R15 (PC))  returns 0x080041D2 (0000ms, 0710ms total)
T363C 008:803 JLINK_ReadReg(XPSR)  returns 0x61000000 (0000ms, 0710ms total)
T363C 008:803 JLINK_ReadReg(MSP)  returns 0x60000B28 (0000ms, 0710ms total)
T363C 008:803 JLINK_ReadReg(PSP)  returns 0x20001000 (0000ms, 0710ms total)
T363C 008:803 JLINK_ReadReg(CFBP)  returns 0x00000000 (0000ms, 0710ms total)
T3F24 008:803 JLINK_ReadMemU32(0xE0001004, 0x0001 Items, ...) -- CPU_ReadMem(4 bytes @ 0xE0001004) - Data: 97 06 0A 00  returns 0x01 (0001ms, 0711ms total)
T3F24 008:807 JLINK_ReadMem (0x080041D2, 0x0002 Bytes, ...) -- CPU_ReadMem(64 bytes @ 0x080041C0) -- Updating C cache (64 bytes @ 0x080041C0) -- Read from C cache (2 bytes @ 0x080041D2) - Data: 00 21  returns 0x00 (0002ms, 0713ms total)
T3F24 008:809 JLINK_ReadMem (0x080041D4, 0x003C Bytes, ...) -- CPU_ReadMem(64 bytes @ 0x08004200) -- Updating C cache (64 bytes @ 0x08004200) -- Read from C cache (60 bytes @ 0x080041D4) - Data: 13 48 00 F0 06 FA 13 48 00 F0 32 F8 12 A0 04 F0 ...  returns 0x00 (0001ms, 0714ms total)
T363C 011:141 JLINK_Step() -- Read from C cache (2 bytes @ 0x080041D2) -- Simulated  returns 0x00 (0002ms, 0716ms total)
T363C 011:143 JLINK_ReadReg(R15 (PC))  returns 0x080041D4 (0000ms, 0716ms total)
T363C 011:143 JLINK_ReadReg(XPSR)  returns 0x61000000 (0000ms, 0716ms total)
T363C 011:143 JLINK_Step() -- Read from C cache (2 bytes @ 0x080041D4) -- Read from C cache (4 bytes @ 0x08004224) -- Simulated  returns 0x00 (0000ms, 0716ms total)
T363C 011:143 JLINK_ReadReg(R15 (PC))  returns 0x080041D6 (0000ms, 0716ms total)
T363C 011:143 JLINK_ReadReg(XPSR)  returns 0x61000000 (0000ms, 0716ms total)
T363C 011:143 JLINK_SetBPEx(Addr = 0x080041DA, Type = 0xFFFFFFF2)  returns 0x00000006 (0000ms, 0716ms total)
T363C 011:143 JLINK_Go() -- CPU_WriteMem(4 bytes @ 0xE0002000) -- CPU_ReadMem(4 bytes @ 0xE0001000) -- CPU_WriteMem(4 bytes @ 0xE0002008) -- CPU_WriteMem(4 bytes @ 0xE0001004) (0005ms, 0721ms total)
T363C 011:249 JLINK_IsHalted()  returns TRUE (0003ms, 0724ms total)
T363C 011:252 JLINK_Halt()  returns 0x00 (0000ms, 0721ms total)
T363C 011:252 JLINK_IsHalted()  returns TRUE (0000ms, 0721ms total)
T363C 011:252 JLINK_IsHalted()  returns TRUE (0000ms, 0721ms total)
T363C 011:252 JLINK_IsHalted()  returns TRUE (0000ms, 0721ms total)
T363C 011:252 JLINK_ReadReg(R15 (PC))  returns 0x080041DA (0000ms, 0721ms total)
T363C 011:252 JLINK_ReadReg(XPSR)  returns 0x01000000 (0000ms, 0721ms total)
T363C 011:252 JLINK_ClrBPEx(BPHandle = 0x00000006)  returns 0x00 (0000ms, 0721ms total)
T363C 011:252 JLINK_ReadMemU32(0xE000ED30, 0x0001 Items, ...) -- CPU_ReadMem(4 bytes @ 0xE000ED30) - Data: 03 00 00 00  returns 0x01 (0000ms, 0721ms total)
T363C 011:252 JLINK_ReadMemU32(0xE0001028, 0x0001 Items, ...) -- CPU_ReadMem(4 bytes @ 0xE0001028) - Data: 00 00 00 00  returns 0x01 (0001ms, 0722ms total)
T363C 011:253 JLINK_ReadMemU32(0xE0001038, 0x0001 Items, ...) -- CPU_ReadMem(4 bytes @ 0xE0001038) - Data: 00 02 00 00  returns 0x01 (0001ms, 0723ms total)
T363C 011:254 JLINK_ReadMemU32(0xE0001048, 0x0001 Items, ...) -- CPU_ReadMem(4 bytes @ 0xE0001048) - Data: 00 00 00 00  returns 0x01 (0000ms, 0723ms total)
T363C 011:254 JLINK_ReadMemU32(0xE0001058, 0x0001 Items, ...) -- CPU_ReadMem(4 bytes @ 0xE0001058) - Data: 00 00 00 00  returns 0x01 (0001ms, 0724ms total)
T363C 011:255 JLINK_ReadReg(R0)  returns 0x60000034 (0000ms, 0724ms total)
T363C 011:255 JLINK_ReadReg(R1)  returns 0x60000018 (0000ms, 0724ms total)
T363C 011:255 JLINK_ReadReg(R2)  returns 0x00000000 (0000ms, 0724ms total)
T363C 011:255 JLINK_ReadReg(R3)  returns 0x080042D1 (0000ms, 0724ms total)
T363C 011:255 JLINK_ReadReg(R4)  returns 0x08009318 (0000ms, 0724ms total)
T363C 011:255 JLINK_ReadReg(R5)  returns 0x08009318 (0000ms, 0724ms total)
T363C 011:255 JLINK_ReadReg(R6)  returns 0x00000000 (0000ms, 0724ms total)
T363C 011:255 JLINK_ReadReg(R7)  returns 0x00000000 (0001ms, 0725ms total)
T363C 011:256 JLINK_ReadReg(R8)  returns 0x00000000 (0000ms, 0725ms total)
T363C 011:256 JLINK_ReadReg(R9)  returns 0x20000160 (0000ms, 0725ms total)
T363C 011:256 JLINK_ReadReg(R10)  returns 0x00000000 (0000ms, 0725ms total)
T363C 011:256 JLINK_ReadReg(R11)  returns 0x00000000 (0000ms, 0725ms total)
T363C 011:256 JLINK_ReadReg(R12)  returns 0x00000C00 (0000ms, 0725ms total)
T363C 011:256 JLINK_ReadReg(R13 (SP))  returns 0x60000B28 (0000ms, 0725ms total)
T363C 011:256 JLINK_ReadReg(R14)  returns 0x080045A7 (0000ms, 0725ms total)
T363C 011:256 JLINK_ReadReg(R15 (PC))  returns 0x080041DA (0000ms, 0725ms total)
T363C 011:256 JLINK_ReadReg(XPSR)  returns 0x01000000 (0000ms, 0725ms total)
T363C 011:256 JLINK_ReadReg(MSP)  returns 0x60000B28 (0000ms, 0725ms total)
T363C 011:256 JLINK_ReadReg(PSP)  returns 0x20001000 (0000ms, 0725ms total)
T363C 011:256 JLINK_ReadReg(CFBP)  returns 0x00000000 (0000ms, 0725ms total)
T3F24 011:257 JLINK_ReadMemU32(0xE0001004, 0x0001 Items, ...) -- CPU_ReadMem(4 bytes @ 0xE0001004) - Data: AB 0D 0A 00  returns 0x01 (0000ms, 0725ms total)
T3F24 011:261 JLINK_ReadMem (0x080041DA, 0x0002 Bytes, ...) -- CPU_ReadMem(64 bytes @ 0x080041C0) -- Updating C cache (64 bytes @ 0x080041C0) -- Read from C cache (2 bytes @ 0x080041DA) - Data: 13 48  returns 0x00 (0001ms, 0726ms total)
T3F24 011:262 JLINK_ReadMem (0x080041DC, 0x003C Bytes, ...) -- CPU_ReadMem(64 bytes @ 0x08004200) -- Updating C cache (64 bytes @ 0x08004200) -- Read from C cache (60 bytes @ 0x080041DC) - Data: 00 F0 32 F8 12 A0 04 F0 09 FF 09 E0 00 BF 00 F0 ...  returns 0x00 (0001ms, 0727ms total)
T363C 012:231 JLINK_Step() -- Read from C cache (2 bytes @ 0x080041DA) -- Read from C cache (4 bytes @ 0x08004228) -- Simulated  returns 0x00 (0002ms, 0729ms total)
T363C 012:233 JLINK_ReadReg(R15 (PC))  returns 0x080041DC (0000ms, 0729ms total)
T363C 012:233 JLINK_ReadReg(XPSR)  returns 0x01000000 (0000ms, 0729ms total)
T363C 012:233 JLINK_SetBPEx(Addr = 0x080041E0, Type = 0xFFFFFFF2)  returns 0x00000007 (0000ms, 0729ms total)
T363C 012:233 JLINK_Go() -- CPU_WriteMem(4 bytes @ 0xE0002000) -- CPU_ReadMem(4 bytes @ 0xE0001000) -- CPU_WriteMem(4 bytes @ 0xE0002008) -- CPU_WriteMem(4 bytes @ 0xE0001004) (0003ms, 0732ms total)
T363C 012:337 JLINK_IsHalted()  returns TRUE (0003ms, 0735ms total)
T363C 012:340 JLINK_Halt()  returns 0x00 (0000ms, 0732ms total)
T363C 012:340 JLINK_IsHalted()  returns TRUE (0000ms, 0732ms total)
T363C 012:340 JLINK_IsHalted()  returns TRUE (0000ms, 0732ms total)
T363C 012:340 JLINK_IsHalted()  returns TRUE (0000ms, 0732ms total)
T363C 012:340 JLINK_ReadReg(R15 (PC))  returns 0x080041E0 (0000ms, 0732ms total)
T363C 012:340 JLINK_ReadReg(XPSR)  returns 0x61000000 (0000ms, 0732ms total)
T363C 012:340 JLINK_ClrBPEx(BPHandle = 0x00000007)  returns 0x00 (0000ms, 0732ms total)
T363C 012:340 JLINK_ReadMemU32(0xE000ED30, 0x0001 Items, ...) -- CPU_ReadMem(4 bytes @ 0xE000ED30) - Data: 03 00 00 00  returns 0x01 (0001ms, 0733ms total)
T363C 012:341 JLINK_ReadMemU32(0xE0001028, 0x0001 Items, ...) -- CPU_ReadMem(4 bytes @ 0xE0001028) - Data: 00 00 00 00  returns 0x01 (0000ms, 0733ms total)
T363C 012:341 JLINK_ReadMemU32(0xE0001038, 0x0001 Items, ...) -- CPU_ReadMem(4 bytes @ 0xE0001038) - Data: 00 02 00 00  returns 0x01 (0001ms, 0734ms total)
T363C 012:342 JLINK_ReadMemU32(0xE0001048, 0x0001 Items, ...) -- CPU_ReadMem(4 bytes @ 0xE0001048) - Data: 00 00 00 00  returns 0x01 (0001ms, 0735ms total)
T363C 012:343 JLINK_ReadMemU32(0xE0001058, 0x0001 Items, ...) -- CPU_ReadMem(4 bytes @ 0xE0001058) - Data: 00 00 00 00  returns 0x01 (0000ms, 0735ms total)
T363C 012:343 JLINK_ReadReg(R0)  returns 0x00000000 (0000ms, 0735ms total)
T363C 012:343 JLINK_ReadReg(R1)  returns 0x00000064 (0000ms, 0735ms total)
T363C 012:344 JLINK_ReadReg(R2)  returns 0x6000001C (0000ms, 0736ms total)
T363C 012:344 JLINK_ReadReg(R3)  returns 0x08004145 (0000ms, 0736ms total)
T363C 012:344 JLINK_ReadReg(R4)  returns 0x08009318 (0000ms, 0736ms total)
T363C 012:344 JLINK_ReadReg(R5)  returns 0x08009318 (0000ms, 0736ms total)
T363C 012:344 JLINK_ReadReg(R6)  returns 0x00000000 (0000ms, 0736ms total)
T363C 012:344 JLINK_ReadReg(R7)  returns 0x00000000 (0000ms, 0736ms total)
T363C 012:344 JLINK_ReadReg(R8)  returns 0x00000000 (0000ms, 0736ms total)
T363C 012:344 JLINK_ReadReg(R9)  returns 0x20000160 (0000ms, 0736ms total)
T363C 012:344 JLINK_ReadReg(R10)  returns 0x00000000 (0000ms, 0736ms total)
T363C 012:344 JLINK_ReadReg(R11)  returns 0x00000000 (0000ms, 0736ms total)
T363C 012:344 JLINK_ReadReg(R12)  returns 0x00000C00 (0000ms, 0736ms total)
T363C 012:344 JLINK_ReadReg(R13 (SP))  returns 0x60000B28 (0000ms, 0736ms total)
T363C 012:344 JLINK_ReadReg(R14)  returns 0x08004295 (0000ms, 0736ms total)
T363C 012:344 JLINK_ReadReg(R15 (PC))  returns 0x080041E0 (0000ms, 0736ms total)
T363C 012:344 JLINK_ReadReg(XPSR)  returns 0x61000000 (0000ms, 0736ms total)
T363C 012:344 JLINK_ReadReg(MSP)  returns 0x60000B28 (0000ms, 0736ms total)
T363C 012:344 JLINK_ReadReg(PSP)  returns 0x20001000 (0000ms, 0736ms total)
T363C 012:344 JLINK_ReadReg(CFBP)  returns 0x00000000 (0000ms, 0736ms total)
T3F24 012:344 JLINK_ReadMemU32(0xE0001004, 0x0001 Items, ...) -- CPU_ReadMem(4 bytes @ 0xE0001004) - Data: 1F 19 0A 00  returns 0x01 (0001ms, 0737ms total)
T3F24 012:348 JLINK_ReadMem (0x080041E0, 0x003C Bytes, ...) -- CPU_ReadMem(128 bytes @ 0x080041C0) -- Updating C cache (128 bytes @ 0x080041C0) -- Read from C cache (60 bytes @ 0x080041E0) - Data: 12 A0 04 F0 09 FF 09 E0 00 BF 00 F0 A7 FA 00 28 ...  returns 0x00 (0002ms, 0739ms total)
T363C 013:173 JLINK_Step() -- Read from C cache (2 bytes @ 0x080041E0) -- Simulated  returns 0x00 (0001ms, 0740ms total)
T363C 013:174 JLINK_ReadReg(R15 (PC))  returns 0x080041E2 (0000ms, 0740ms total)
T363C 013:174 JLINK_ReadReg(XPSR)  returns 0x61000000 (0000ms, 0740ms total)
T363C 013:174 JLINK_SetBPEx(Addr = 0x080041E6, Type = 0xFFFFFFF2)  returns 0x00000008 (0000ms, 0740ms total)
T363C 013:174 JLINK_Go() -- CPU_WriteMem(4 bytes @ 0xE0002000) -- CPU_ReadMem(4 bytes @ 0xE0001000) -- CPU_WriteMem(4 bytes @ 0xE0002008) -- CPU_WriteMem(4 bytes @ 0xE0001004) (0005ms, 0745ms total)
T363C 013:280 JLINK_IsHalted()  returns TRUE (0003ms, 0748ms total)
T363C 013:283 JLINK_Halt()  returns 0x00 (0000ms, 0745ms total)
T363C 013:283 JLINK_IsHalted()  returns TRUE (0000ms, 0745ms total)
T363C 013:283 JLINK_IsHalted()  returns TRUE (0000ms, 0745ms total)
T363C 013:283 JLINK_IsHalted()  returns TRUE (0000ms, 0745ms total)
T363C 013:283 JLINK_ReadReg(R15 (PC))  returns 0x080041E6 (0000ms, 0745ms total)
T363C 013:283 JLINK_ReadReg(XPSR)  returns 0x61000000 (0000ms, 0745ms total)
T363C 013:283 JLINK_ClrBPEx(BPHandle = 0x00000008)  returns 0x00 (0000ms, 0745ms total)
T363C 013:283 JLINK_ReadMemU32(0xE000ED30, 0x0001 Items, ...) -- CPU_ReadMem(4 bytes @ 0xE000ED30) - Data: 03 00 00 00  returns 0x01 (0001ms, 0746ms total)
T363C 013:284 JLINK_ReadMemU32(0xE0001028, 0x0001 Items, ...) -- CPU_ReadMem(4 bytes @ 0xE0001028) - Data: 00 00 00 00  returns 0x01 (0001ms, 0747ms total)
T363C 013:285 JLINK_ReadMemU32(0xE0001038, 0x0001 Items, ...) -- CPU_ReadMem(4 bytes @ 0xE0001038) - Data: 00 02 00 00  returns 0x01 (0000ms, 0747ms total)
T363C 013:285 JLINK_ReadMemU32(0xE0001048, 0x0001 Items, ...) -- CPU_ReadMem(4 bytes @ 0xE0001048) - Data: 00 00 00 00  returns 0x01 (0001ms, 0748ms total)
T363C 013:286 JLINK_ReadMemU32(0xE0001058, 0x0001 Items, ...) -- CPU_ReadMem(4 bytes @ 0xE0001058) - Data: 00 00 00 00  returns 0x01 (0001ms, 0749ms total)
T363C 013:287 JLINK_ReadReg(R0)  returns 0x00000013 (0000ms, 0749ms total)
T363C 013:287 JLINK_ReadReg(R1)  returns 0x00000040 (0000ms, 0749ms total)
T363C 013:287 JLINK_ReadReg(R2)  returns 0x40004400 (0000ms, 0749ms total)
T363C 013:287 JLINK_ReadReg(R3)  returns 0x00000040 (0000ms, 0749ms total)
T363C 013:287 JLINK_ReadReg(R4)  returns 0x08009318 (0000ms, 0749ms total)
T363C 013:287 JLINK_ReadReg(R5)  returns 0x08009318 (0000ms, 0749ms total)
T363C 013:287 JLINK_ReadReg(R6)  returns 0x00000000 (0000ms, 0749ms total)
T363C 013:287 JLINK_ReadReg(R7)  returns 0x00000000 (0000ms, 0749ms total)
T363C 013:287 JLINK_ReadReg(R8)  returns 0x00000000 (0000ms, 0749ms total)
T363C 013:287 JLINK_ReadReg(R9)  returns 0x20000160 (0000ms, 0749ms total)
T363C 013:287 JLINK_ReadReg(R10)  returns 0x00000000 (0000ms, 0749ms total)
T363C 013:287 JLINK_ReadReg(R11)  returns 0x00000000 (0000ms, 0749ms total)
T363C 013:287 JLINK_ReadReg(R12)  returns 0x00000C00 (0000ms, 0749ms total)
T363C 013:287 JLINK_ReadReg(R13 (SP))  returns 0x60000B28 (0000ms, 0749ms total)
T363C 013:287 JLINK_ReadReg(R14)  returns 0x08004EC9 (0000ms, 0749ms total)
T363C 013:287 JLINK_ReadReg(R15 (PC))  returns 0x080041E6 (0000ms, 0749ms total)
T363C 013:287 JLINK_ReadReg(XPSR)  returns 0x61000000 (0000ms, 0749ms total)
T363C 013:287 JLINK_ReadReg(MSP)  returns 0x60000B28 (0000ms, 0749ms total)
T363C 013:287 JLINK_ReadReg(PSP)  returns 0x20001000 (0000ms, 0749ms total)
T363C 013:287 JLINK_ReadReg(CFBP)  returns 0x00000000 (0000ms, 0749ms total)
T3F24 013:288 JLINK_ReadMemU32(0xE0001004, 0x0001 Items, ...) -- CPU_ReadMem(4 bytes @ 0xE0001004) - Data: 3A 4A 0C 00  returns 0x01 (0001ms, 0750ms total)
T3F24 013:297 JLINK_ReadMem (0x080041E6, 0x0002 Bytes, ...) -- CPU_ReadMem(64 bytes @ 0x080041C0) -- Updating C cache (64 bytes @ 0x080041C0) -- Read from C cache (2 bytes @ 0x080041E6) - Data: 09 E0  returns 0x00 (0001ms, 0751ms total)
T3F24 013:298 JLINK_ReadMem (0x080041E8, 0x003C Bytes, ...) -- CPU_ReadMem(64 bytes @ 0x08004200) -- Updating C cache (64 bytes @ 0x08004200) -- Read from C cache (60 bytes @ 0x080041E8) - Data: 00 BF 00 F0 A7 FA 00 28 FB DC 13 48 00 68 40 1C ...  returns 0x00 (0002ms, 0753ms total)
T363C 014:037 JLINK_Step() -- Read from C cache (2 bytes @ 0x080041E6) -- Simulated  returns 0x00 (0000ms, 0754ms total)
T363C 014:037 JLINK_ReadReg(R15 (PC))  returns 0x080041FC (0000ms, 0754ms total)
T363C 014:037 JLINK_ReadReg(XPSR)  returns 0x61000000 (0000ms, 0754ms total)
T363C 014:037 JLINK_Step() -- Read from C cache (2 bytes @ 0x080041FC) -- Simulated  returns 0x00 (0000ms, 0754ms total)
T363C 014:037 JLINK_ReadReg(R15 (PC))  returns 0x080041E8 (0001ms, 0755ms total)
T363C 014:038 JLINK_ReadReg(XPSR)  returns 0x61000000 (0000ms, 0755ms total)
T363C 014:038 JLINK_ReadReg(R0)  returns 0x00000013 (0000ms, 0755ms total)
T363C 014:038 JLINK_ReadReg(R1)  returns 0x00000040 (0000ms, 0755ms total)
T363C 014:038 JLINK_ReadReg(R2)  returns 0x40004400 (0000ms, 0755ms total)
T363C 014:038 JLINK_ReadReg(R3)  returns 0x00000040 (0000ms, 0755ms total)
T363C 014:038 JLINK_ReadReg(R4)  returns 0x08009318 (0000ms, 0755ms total)
T363C 014:038 JLINK_ReadReg(R5)  returns 0x08009318 (0000ms, 0755ms total)
T363C 014:038 JLINK_ReadReg(R6)  returns 0x00000000 (0000ms, 0755ms total)
T363C 014:038 JLINK_ReadReg(R7)  returns 0x00000000 (0000ms, 0755ms total)
T363C 014:038 JLINK_ReadReg(R8)  returns 0x00000000 (0000ms, 0755ms total)
T363C 014:038 JLINK_ReadReg(R9)  returns 0x20000160 (0000ms, 0755ms total)
T363C 014:038 JLINK_ReadReg(R10)  returns 0x00000000 (0000ms, 0755ms total)
T363C 014:038 JLINK_ReadReg(R11)  returns 0x00000000 (0000ms, 0755ms total)
T363C 014:038 JLINK_ReadReg(R12)  returns 0x00000C00 (0000ms, 0755ms total)
T363C 014:038 JLINK_ReadReg(R13 (SP))  returns 0x60000B28 (0000ms, 0755ms total)
T363C 014:038 JLINK_ReadReg(R14)  returns 0x08004EC9 (0000ms, 0755ms total)
T363C 014:038 JLINK_ReadReg(R15 (PC))  returns 0x080041E8 (0000ms, 0755ms total)
T363C 014:038 JLINK_ReadReg(XPSR)  returns 0x61000000 (0000ms, 0755ms total)
T363C 014:038 JLINK_ReadReg(MSP)  returns 0x60000B28 (0000ms, 0755ms total)
T363C 014:038 JLINK_ReadReg(PSP)  returns 0x20001000 (0000ms, 0755ms total)
T363C 014:038 JLINK_ReadReg(CFBP)  returns 0x00000000 (0000ms, 0755ms total)
T3F24 014:039 JLINK_ReadMemU32(0xE0001004, 0x0001 Items, ...) - Data: 3A 4A 0C 00  returns 0x01 (0000ms, 0755ms total)
T3F24 014:043 JLINK_ReadMem (0x080041E8, 0x003C Bytes, ...) -- Read from C cache (60 bytes @ 0x080041E8) - Data: 00 BF 00 F0 A7 FA 00 28 FB DC 13 48 00 68 40 1C ...  returns 0x00 (0000ms, 0755ms total)
T363C 014:421 JLINK_Step() -- Read from C cache (2 bytes @ 0x080041E8) -- Simulated  returns 0x00 (0000ms, 0755ms total)
T363C 014:421 JLINK_ReadReg(R15 (PC))  returns 0x080041EA (0000ms, 0755ms total)
T363C 014:421 JLINK_ReadReg(XPSR)  returns 0x61000000 (0000ms, 0755ms total)
T363C 014:421 JLINK_ReadReg(R0)  returns 0x00000013 (0000ms, 0755ms total)
T363C 014:421 JLINK_ReadReg(R1)  returns 0x00000040 (0000ms, 0755ms total)
T363C 014:421 JLINK_ReadReg(R2)  returns 0x40004400 (0000ms, 0755ms total)
T363C 014:421 JLINK_ReadReg(R3)  returns 0x00000040 (0001ms, 0756ms total)
T363C 014:422 JLINK_ReadReg(R4)  returns 0x08009318 (0000ms, 0756ms total)
T363C 014:422 JLINK_ReadReg(R5)  returns 0x08009318 (0000ms, 0756ms total)
T363C 014:422 JLINK_ReadReg(R6)  returns 0x00000000 (0000ms, 0756ms total)
T363C 014:422 JLINK_ReadReg(R7)  returns 0x00000000 (0000ms, 0756ms total)
T363C 014:422 JLINK_ReadReg(R8)  returns 0x00000000 (0000ms, 0756ms total)
T363C 014:422 JLINK_ReadReg(R9)  returns 0x20000160 (0000ms, 0756ms total)
T363C 014:422 JLINK_ReadReg(R10)  returns 0x00000000 (0000ms, 0756ms total)
T363C 014:422 JLINK_ReadReg(R11)  returns 0x00000000 (0000ms, 0756ms total)
T363C 014:422 JLINK_ReadReg(R12)  returns 0x00000C00 (0000ms, 0756ms total)
T363C 014:422 JLINK_ReadReg(R13 (SP))  returns 0x60000B28 (0000ms, 0756ms total)
T363C 014:422 JLINK_ReadReg(R14)  returns 0x08004EC9 (0000ms, 0756ms total)
T363C 014:422 JLINK_ReadReg(R15 (PC))  returns 0x080041EA (0000ms, 0756ms total)
T363C 014:422 JLINK_ReadReg(XPSR)  returns 0x61000000 (0000ms, 0756ms total)
T363C 014:422 JLINK_ReadReg(MSP)  returns 0x60000B28 (0000ms, 0756ms total)
T363C 014:422 JLINK_ReadReg(PSP)  returns 0x20001000 (0000ms, 0756ms total)
T363C 014:422 JLINK_ReadReg(CFBP)  returns 0x00000000 (0000ms, 0756ms total)
T3F24 014:423 JLINK_ReadMemU32(0xE0001004, 0x0001 Items, ...) - Data: 3A 4A 0C 00  returns 0x01 (0000ms, 0756ms total)
T3F24 014:427 JLINK_ReadMem (0x080041EA, 0x0002 Bytes, ...) -- Read from C cache (2 bytes @ 0x080041EA) - Data: 00 F0  returns 0x00 (0000ms, 0756ms total)
T3F24 014:427 JLINK_ReadMem (0x080041EC, 0x003C Bytes, ...) -- Read from C cache (60 bytes @ 0x080041EC) - Data: A7 FA 00 28 FB DC 13 48 00 68 40 1C 11 49 08 60 ...  returns 0x00 (0000ms, 0756ms total)
T363C 014:741 JLINK_SetBPEx(Addr = 0x080041EE, Type = 0xFFFFFFF2)  returns 0x00000009 (0000ms, 0756ms total)
T363C 014:741 JLINK_Go() -- CPU_WriteMem(4 bytes @ 0xE0002000) -- CPU_ReadMem(4 bytes @ 0xE0001000) -- CPU_WriteMem(4 bytes @ 0xE0002008) -- CPU_WriteMem(4 bytes @ 0xE0001004) (0006ms, 0762ms total)
T363C 014:848 JLINK_IsHalted()  returns TRUE (0003ms, 0765ms total)
T363C 014:851 JLINK_Halt()  returns 0x00 (0000ms, 0762ms total)
T363C 014:851 JLINK_IsHalted()  returns TRUE (0000ms, 0762ms total)
T363C 014:851 JLINK_IsHalted()  returns TRUE (0000ms, 0762ms total)
T363C 014:851 JLINK_IsHalted()  returns TRUE (0000ms, 0762ms total)
T363C 014:851 JLINK_ReadReg(R15 (PC))  returns 0x080041EE (0000ms, 0762ms total)
T363C 014:851 JLINK_ReadReg(XPSR)  returns 0x61000000 (0000ms, 0762ms total)
T363C 014:851 JLINK_ClrBPEx(BPHandle = 0x00000009)  returns 0x00 (0000ms, 0762ms total)
T363C 014:851 JLINK_ReadMemU32(0xE000ED30, 0x0001 Items, ...) -- CPU_ReadMem(4 bytes @ 0xE000ED30) - Data: 03 00 00 00  returns 0x01 (0001ms, 0763ms total)
T363C 014:852 JLINK_ReadMemU32(0xE0001028, 0x0001 Items, ...) -- CPU_ReadMem(4 bytes @ 0xE0001028) - Data: 00 00 00 00  returns 0x01 (0000ms, 0763ms total)
T363C 014:852 JLINK_ReadMemU32(0xE0001038, 0x0001 Items, ...) -- CPU_ReadMem(4 bytes @ 0xE0001038) - Data: 00 02 00 00  returns 0x01 (0001ms, 0764ms total)
T363C 014:853 JLINK_ReadMemU32(0xE0001048, 0x0001 Items, ...) -- CPU_ReadMem(4 bytes @ 0xE0001048) - Data: 00 00 00 00  returns 0x01 (0001ms, 0765ms total)
T363C 014:854 JLINK_ReadMemU32(0xE0001058, 0x0001 Items, ...) -- CPU_ReadMem(4 bytes @ 0xE0001058) - Data: 00 00 00 00  returns 0x01 (0001ms, 0766ms total)
T363C 014:855 JLINK_ReadReg(R0)  returns 0x00000000 (0000ms, 0766ms total)
T363C 014:855 JLINK_ReadReg(R1)  returns 0x00000000 (0000ms, 0766ms total)
T363C 014:855 JLINK_ReadReg(R2)  returns 0x00000000 (0000ms, 0766ms total)
T363C 014:855 JLINK_ReadReg(R3)  returns 0x080042D1 (0000ms, 0766ms total)
T363C 014:855 JLINK_ReadReg(R4)  returns 0x08009318 (0000ms, 0766ms total)
T363C 014:855 JLINK_ReadReg(R5)  returns 0x08009318 (0000ms, 0766ms total)
T363C 014:855 JLINK_ReadReg(R6)  returns 0x00000000 (0000ms, 0766ms total)
T363C 014:855 JLINK_ReadReg(R7)  returns 0x00000000 (0000ms, 0766ms total)
